date Sat Sep 12 07:19:09.152 pm 2026
base hex  timestamps absolute
internal events logged
// version 8.5.0
Begin Triggerblock Sat Sep 12 07:19:09.152 pm 2026
   0.000000 Start of measurement
   0.000000 1  18efff21x       Rx   d 8 04 1B F9 00 00 00 FF 21   Length = 0 BitCount = 0 ID = 418381601x
   0.099811 1  18efff21x       Rx   d 8 04 1B F9 01 00 00 FF 21   Length = 0 BitCount = 0 ID = 418381601x
   0.199628 1  18efff21x       Rx   d 8 04 1B F9 02 00 00 FF 21   Length = 0 BitCount = 0 ID = 418381601x
   0.299456 1  18efff21x       Rx   d 8 04 1B F9 03 00 00 FF 21   Length = 0 BitCount = 0 ID = 418381601x
   0.399264 1  18efff21x       Rx   d 8 04 1B F9 04 00 00 FF 21   Length = 0 BitCount = 0 ID = 418381601x
   0.499060 1  18efff21x       Rx   d 8 04 1B F9 05 00 00 FF 21   Length = 0 BitCount = 0 ID = 418381601x
   0.598867 1  18efff21x       Rx   d 8 04 1B F9 06 00 00 FF 21   Length = 0 BitCount = 0 ID = 418381601x
   0.698676 1  18efff21x       Rx   d 8 04 1B F9 07 00 00 FF 21   Length = 0 BitCount = 0 ID = 418381601x
   0.798493 1  18efff21x       Rx   d 8 04 1B F9 08 00 00 FF 21   Length = 0 BitCount = 0 ID = 418381601x
   0.898317 1  18efff21x       Rx   d 8 04 1B F9 09 00 00 FF 21   Length = 0 BitCount = 0 ID = 418381601x
   0.998131 1  18efff21x       Rx   d 8 04 1B F9 0A 00 00 FF 21   Length = 0 BitCount = 0 ID = 418381601x
   1.097941 1  18efff21x       Rx   d 8 04 1B F9 0B 00 00 FF 21   Length = 0 BitCount = 0 ID = 418381601x
   1.197747 1  18efff21x       Rx   d 8 04 1B F9 0C 00 00 FF 21   Length = 0 BitCount = 0 ID = 418381601x
   1.297551 1  18efff21x       Rx   d 8 04 1B F9 0D 00 00 FF 21   Length = 0 BitCount = 0 ID = 418381601x
   1.397357 1  18efff21x       Rx   d 8 04 1B F9 0E 00 00 FF 21   Length = 0 BitCount = 0 ID = 418381601x
   1.497171 1  18efff21x       Rx   d 8 04 1B F9 0F 00 00 FF 21   Length = 0 BitCount = 0 ID = 418381601x
   1.596973 1  18efff21x       Rx   d 8 04 1B F9 10 00 00 FF 21   Length = 0 BitCount = 0 ID = 418381601x
   1.696771 1  18efff21x       Rx   d 8 04 1B F9 11 00 00 FF 21   Length = 0 BitCount = 0 ID = 418381601x
   1.796571 1  18efff21x       Rx   d 8 04 1B F9 12 00 00 FF 21   Length = 0 BitCount = 0 ID = 418381601x
   1.896368 1  18efff21x       Rx   d 8 04 1B F9 13 00 00 FF 21   Length = 0 BitCount = 0 ID = 418381601x
   1.996188 1  18efff21x       Rx   d 8 04 1B F9 14 00 00 FF 21   Length = 0 BitCount = 0 ID = 418381601x
   2.095988 1  18efff21x       Rx   d 8 04 1B F9 15 00 00 FF 21   Length = 0 BitCount = 0 ID = 418381601x
   2.195795 1  18efff21x       Rx   d 8 04 1B F9 16 00 00 FF 21   Length = 0 BitCount = 0 ID = 418381601x
   2.295585 1  18efff21x       Rx   d 8 04 1B F9 17 00 00 FF 21   Length = 0 BitCount = 0 ID = 418381601x
   2.395389 1  18efff21x       Rx   d 8 04 1B F9 18 00 00 FF 21   Length = 0 BitCount = 0 ID = 418381601x
   2.495181 1  18efff21x       Rx   d 8 04 1B F9 19 00 00 FF 21   Length = 0 BitCount = 0 ID = 418381601x
   2.594983 1  18efff21x       Rx   d 8 04 1B F9 1A 00 00 FF 21   Length = 0 BitCount = 0 ID = 418381601x
   2.694790 1  18efff21x       Rx   d 8 04 1B F9 1B 00 00 FF 21   Length = 0 BitCount = 0 ID = 418381601x
   2.794599 1  18efff21x       Rx   d 8 04 1B F9 1C 00 00 FF 21   Length = 0 BitCount = 0 ID = 418381601x
   2.894408 1  18efff21x       Rx   d 8 04 1B F9 1D 00 00 FF 21   Length = 0 BitCount = 0 ID = 418381601x
   2.994225 1  18efff21x       Rx   d 8 04 1B F9 1E 00 00 FF 21   Length = 0 BitCount = 0 ID = 418381601x
   3.094036 1  18efff21x       Rx   d 8 04 1B F9 1F 00 00 FF 21   Length = 0 BitCount = 0 ID = 418381601x
   3.193856 1  18efff21x       Rx   d 8 04 1B F9 20 00 00 FF 21   Length = 0 BitCount = 0 ID = 418381601x
   3.293667 1  18efff21x       Rx   d 8 04 1B F9 21 00 00 FF 21   Length = 0 BitCount = 0 ID = 418381601x
   3.393489 1  18efff21x       Rx   d 8 04 1B F9 22 00 00 FF 21   Length = 0 BitCount = 0 ID = 418381601x
   3.493304 1  18efff21x       Rx   d 8 04 1B F9 23 00 00 FF 21   Length = 0 BitCount = 0 ID = 418381601x
   3.593097 1  18efff21x       Rx   d 8 04 1B F9 24 00 00 FF 21   Length = 0 BitCount = 0 ID = 418381601x
   3.692923 1  18efff21x       Rx   d 8 04 1B F9 25 00 00 FF 21   Length = 0 BitCount = 0 ID = 418381601x
   3.792743 1  18efff21x       Rx   d 8 04 1B F9 26 00 00 FF 21   Length = 0 BitCount = 0 ID = 418381601x
   3.892574 1  18efff21x       Rx   d 8 04 1B F9 27 00 00 FF 21   Length = 0 BitCount = 0 ID = 418381601x
   3.992411 1  18efff21x       Rx   d 8 04 1B F9 28 00 00 FF 21   Length = 0 BitCount = 0 ID = 418381601x
   4.092225 1  18efff21x       Rx   d 8 04 1B F9 29 00 00 FF 21   Length = 0 BitCount = 0 ID = 418381601x
   4.192049 1  18efff21x       Rx   d 8 04 1B F9 2A 00 00 FF 21   Length = 0 BitCount = 0 ID = 418381601x
   4.291882 1  18efff21x       Rx   d 8 04 1B F9 2B 00 00 FF 21   Length = 0 BitCount = 0 ID = 418381601x
   4.391698 1  18efff21x       Rx   d 8 04 1B F9 2C 00 00 FF 21   Length = 0 BitCount = 0 ID = 418381601x
   4.491512 1  18efff21x       Rx   d 8 04 1B F9 2D 00 00 FF 21   Length = 0 BitCount = 0 ID = 418381601x
   4.505811 1  2f0a000x        Rx   d 8 00 40 04 04 08 03 BB B9   Length = 0 BitCount = 0 ID = 49324032x
   4.506109 1  2f0a002x        Rx   d 8 80 C8 00 01 00 78 10 40   Length = 0 BitCount = 0 ID = 49324034x
   4.506407 1  2f0a004x        Rx   d 8 00 02 A8 00 00 00 00 01   Length = 0 BitCount = 0 ID = 49324036x
   4.506706 1  2f0a006x        Rx   d 8 00 00 00 00 04 00 00 00   Length = 0 BitCount = 0 ID = 49324038x
   4.506922 1  2f0a008x        Rx   d 4 00 00 02 00   Length = 0 BitCount = 0 ID = 49324040x
   4.507215 1  2f0a012x        Rx   d 8 00 00 00 00 00 00 00 00   Length = 0 BitCount = 0 ID = 49324050x
   4.507503 1  2f0a014x        Rx   d 8 1E 14 14 00 00 00 00 00   Length = 0 BitCount = 0 ID = 49324052x
   4.507770 1  2f0a016x        Rx   d 7 65 00 00 00 00 00 00   Length = 0 BitCount = 0 ID = 49324054x
   4.507990 1  2f0a018x        Rx   d 4 00 00 00 00   Length = 0 BitCount = 0 ID = 49324056x
   4.508270 1  2f0a020x        Rx   d 8 00 00 50 00 03 C0 C8 00   Length = 0 BitCount = 0 ID = 49324064x
   4.508560 1  2f0a022x        Rx   d 8 02 80 00 3E 80 0C 00 00   Length = 0 BitCount = 0 ID = 49324066x
   4.508845 1  2f0a024x        Rx   d 8 00 00 50 00 03 C0 C8 00   Length = 0 BitCount = 0 ID = 49324068x
   4.509128 1  2f0a026x        Rx   d 8 02 80 00 3E 80 00 00 00   Length = 0 BitCount = 0 ID = 49324070x
   4.509415 1  2f0a028x        Rx   d 8 00 00 50 00 03 C0 C8 00   Length = 0 BitCount = 0 ID = 49324072x
   4.509704 1  2f0a030x        Rx   d 8 02 80 00 3E 80 00 00 00   Length = 0 BitCount = 0 ID = 49324080x
   4.509982 1  2f0a032x        Rx   d 8 05 00 00 3C 00 28 C8 00   Length = 0 BitCount = 0 ID = 49324082x
   4.510233 1  2f0a034x        Rx   d 6 00 03 E8 14 05 20   Length = 0 BitCount = 0 ID = 49324084x
   4.510528 1  2f0a036x        Rx   d 8 00 00 00 00 00 00 00 00   Length = 0 BitCount = 0 ID = 49324086x
   4.510819 1  2f0a038x        Rx   d 8 00 00 00 00 00 00 00 00   Length = 0 BitCount = 0 ID = 49324088x
   4.511071 1  2f0a040x        Rx   d 6 00 00 00 00 00 00   Length = 0 BitCount = 0 ID = 49324096x
   4.511332 1  2f0a044x        Rx   d 7 12 02 A0 00 48 08 A0   Length = 0 BitCount = 0 ID = 49324100x
   4.525818 1  2f0a004x        Rx   d 8 00 02 A8 00 00 00 00 01   Length = 0 BitCount = 0 ID = 49324036x
   4.526123 1  2f0a006x        Rx   d 8 00 00 00 00 04 00 00 00   Length = 0 BitCount = 0 ID = 49324038x
   4.526349 1  2f0a008x        Rx   d 4 00 00 02 00   Length = 0 BitCount = 0 ID = 49324040x
   4.526653 1  2f0a012x        Rx   d 8 00 00 00 00 00 00 00 00   Length = 0 BitCount = 0 ID = 49324050x
   4.526942 1  2f0a014x        Rx   d 8 1E 14 14 00 00 00 00 00   Length = 0 BitCount = 0 ID = 49324052x
   4.527208 1  2f0a016x        Rx   d 7 65 00 00 00 00 00 00   Length = 0 BitCount = 0 ID = 49324054x
   4.527423 1  2f0a018x        Rx   d 4 00 00 00 00   Length = 0 BitCount = 0 ID = 49324056x
   4.527708 1  2f0a020x        Rx   d 8 00 00 50 00 03 C0 C8 00   Length = 0 BitCount = 0 ID = 49324064x
   4.527989 1  2f0a022x        Rx   d 8 02 80 00 3E 80 0C 00 00   Length = 0 BitCount = 0 ID = 49324066x
   4.528282 1  2f0a024x        Rx   d 8 00 00 50 00 03 C0 C8 00   Length = 0 BitCount = 0 ID = 49324068x
   4.528565 1  2f0a026x        Rx   d 8 02 80 00 3E 80 00 00 00   Length = 0 BitCount = 0 ID = 49324070x
   4.528850 1  2f0a028x        Rx   d 8 00 00 50 00 03 C0 C8 00   Length = 0 BitCount = 0 ID = 49324072x
   4.529140 1  2f0a030x        Rx   d 8 02 80 00 3E 80 00 00 00   Length = 0 BitCount = 0 ID = 49324080x
   4.529418 1  2f0a032x        Rx   d 8 05 00 00 3C 00 28 C8 00   Length = 0 BitCount = 0 ID = 49324082x
   4.529671 1  2f0a034x        Rx   d 6 00 03 E8 14 05 20   Length = 0 BitCount = 0 ID = 49324084x
   4.529964 1  2f0a036x        Rx   d 8 00 00 00 00 00 00 00 00   Length = 0 BitCount = 0 ID = 49324086x
   4.530257 1  2f0a038x        Rx   d 8 00 00 00 00 00 00 00 00   Length = 0 BitCount = 0 ID = 49324088x
   4.530510 1  2f0a040x        Rx   d 6 00 00 00 00 00 00   Length = 0 BitCount = 0 ID = 49324096x
   4.545821 1  2f0a004x        Rx   d 8 00 02 A8 00 00 00 00 01   Length = 0 BitCount = 0 ID = 49324036x
   4.546122 1  2f0a006x        Rx   d 8 00 00 00 00 04 00 00 00   Length = 0 BitCount = 0 ID = 49324038x
   4.546342 1  2f0a008x        Rx   d 4 00 00 02 00   Length = 0 BitCount = 0 ID = 49324040x
   4.546649 1  2f0a012x        Rx   d 8 00 00 00 00 00 00 00 00   Length = 0 BitCount = 0 ID = 49324050x
   4.546934 1  2f0a014x        Rx   d 8 1E 14 14 00 00 00 00 00   Length = 0 BitCount = 0 ID = 49324052x
   4.547203 1  2f0a016x        Rx   d 7 65 00 00 00 00 00 00   Length = 0 BitCount = 0 ID = 49324054x
   4.547424 1  2f0a018x        Rx   d 4 00 00 00 00   Length = 0 BitCount = 0 ID = 49324056x
   4.547705 1  2f0a020x        Rx   d 8 00 00 50 00 03 C0 C8 00   Length = 0 BitCount = 0 ID = 49324064x
   4.547992 1  2f0a022x        Rx   d 8 02 80 00 3E 80 0C 00 00   Length = 0 BitCount = 0 ID = 49324066x
   4.548275 1  2f0a024x        Rx   d 8 00 00 50 00 03 C0 C8 00   Length = 0 BitCount = 0 ID = 49324068x
   4.548561 1  2f0a026x        Rx   d 8 02 80 00 3E 80 00 00 00   Length = 0 BitCount = 0 ID = 49324070x
   4.548850 1  2f0a028x        Rx   d 8 00 00 50 00 03 C0 C8 00   Length = 0 BitCount = 0 ID = 49324072x
   4.549138 1  2f0a030x        Rx   d 8 02 80 00 3E 80 00 00 00   Length = 0 BitCount = 0 ID = 49324080x
   4.549421 1  2f0a032x        Rx   d 8 05 00 00 3C 00 28 C8 00   Length = 0 BitCount = 0 ID = 49324082x
   4.549668 1  2f0a034x        Rx   d 6 00 03 E8 14 05 20   Length = 0 BitCount = 0 ID = 49324084x
   4.549957 1  2f0a036x        Rx   d 8 00 00 00 00 00 00 00 00   Length = 0 BitCount = 0 ID = 49324086x
   4.550251 1  2f0a038x        Rx   d 8 00 00 00 00 00 00 00 00   Length = 0 BitCount = 0 ID = 49324088x
   4.550506 1  2f0a040x        Rx   d 6 00 00 00 00 00 00   Length = 0 BitCount = 0 ID = 49324096x
   4.565813 1  2f0a004x        Rx   d 8 00 02 A8 00 00 00 00 01   Length = 0 BitCount = 0 ID = 49324036x
   4.566120 1  2f0a006x        Rx   d 8 00 00 00 00 04 00 00 00   Length = 0 BitCount = 0 ID = 49324038x
   4.566342 1  2f0a008x        Rx   d 4 00 00 02 00   Length = 0 BitCount = 0 ID = 49324040x
   4.566649 1  2f0a012x        Rx   d 8 00 00 00 00 00 00 00 00   Length = 0 BitCount = 0 ID = 49324050x
   4.566934 1  2f0a014x        Rx   d 8 1E 14 14 00 00 00 00 00   Length = 0 BitCount = 0 ID = 49324052x
   4.567206 1  2f0a016x        Rx   d 7 65 00 00 00 00 00 00   Length = 0 BitCount = 0 ID = 49324054x
   4.567418 1  2f0a018x        Rx   d 4 00 00 00 00   Length = 0 BitCount = 0 ID = 49324056x
   4.567706 1  2f0a020x        Rx   d 8 00 00 50 00 03 C0 C8 00   Length = 0 BitCount = 0 ID = 49324064x
   4.567986 1  2f0a022x        Rx   d 8 02 80 00 3E 80 0C 00 00   Length = 0 BitCount = 0 ID = 49324066x
   4.568270 1  2f0a024x        Rx   d 8 00 00 50 00 03 C0 C8 00   Length = 0 BitCount = 0 ID = 49324068x
   4.568557 1  2f0a026x        Rx   d 8 02 80 00 3E 80 00 00 00   Length = 0 BitCount = 0 ID = 49324070x
   4.568850 1  2f0a028x        Rx   d 8 00 00 50 00 03 C0 C8 00   Length = 0 BitCount = 0 ID = 49324072x
   4.569139 1  2f0a030x        Rx   d 8 02 80 00 3E 80 00 00 00   Length = 0 BitCount = 0 ID = 49324080x
   4.569416 1  2f0a032x        Rx   d 8 05 00 00 3C 00 28 C8 00   Length = 0 BitCount = 0 ID = 49324082x
   4.569666 1  2f0a034x        Rx   d 6 00 03 E8 14 05 20   Length = 0 BitCount = 0 ID = 49324084x
   4.569955 1  2f0a036x        Rx   d 8 00 00 00 00 00 00 00 00   Length = 0 BitCount = 0 ID = 49324086x
   4.570249 1  2f0a038x        Rx   d 8 00 00 00 00 00 00 00 00   Length = 0 BitCount = 0 ID = 49324088x
   4.570503 1  2f0a040x        Rx   d 6 00 00 00 00 00 00   Length = 0 BitCount = 0 ID = 49324096x
   4.585811 1  2f0a004x        Rx   d 8 00 02 A8 00 00 00 00 01   Length = 0 BitCount = 0 ID = 49324036x
   4.586114 1  2f0a006x        Rx   d 8 00 00 00 00 04 00 00 00   Length = 0 BitCount = 0 ID = 49324038x
   4.586342 1  2f0a008x        Rx   d 4 00 00 02 00   Length = 0 BitCount = 0 ID = 49324040x
   4.586650 1  2f0a012x        Rx   d 8 00 00 00 00 00 00 00 00   Length = 0 BitCount = 0 ID = 49324050x
   4.586931 1  2f0a014x        Rx   d 8 1E 14 14 00 00 00 00 00   Length = 0 BitCount = 0 ID = 49324052x
   4.587207 1  2f0a016x        Rx   d 7 65 00 00 00 00 00 00   Length = 0 BitCount = 0 ID = 49324054x
   4.587420 1  2f0a018x        Rx   d 4 00 00 00 00   Length = 0 BitCount = 0 ID = 49324056x
   4.587701 1  2f0a020x        Rx   d 8 00 00 50 00 03 C0 C8 00   Length = 0 BitCount = 0 ID = 49324064x
   4.587992 1  2f0a022x        Rx   d 8 02 80 00 3E 80 0C 00 00   Length = 0 BitCount = 0 ID = 49324066x
   4.588277 1  2f0a024x        Rx   d 8 00 00 50 00 03 C0 C8 00   Length = 0 BitCount = 0 ID = 49324068x
   4.588566 1  2f0a026x        Rx   d 8 02 80 00 3E 80 00 00 00   Length = 0 BitCount = 0 ID = 49324070x
   4.588847 1  2f0a028x        Rx   d 8 00 00 50 00 03 C0 C8 00   Length = 0 BitCount = 0 ID = 49324072x
   4.589142 1  2f0a030x        Rx   d 8 02 80 00 3E 80 00 00 00   Length = 0 BitCount = 0 ID = 49324080x
   4.589421 1  2f0a032x        Rx   d 8 05 00 00 3C 00 28 C8 00   Length = 0 BitCount = 0 ID = 49324082x
   4.589665 1  2f0a034x        Rx   d 6 00 03 E8 14 05 20   Length = 0 BitCount = 0 ID = 49324084x
   4.589959 1  2f0a036x        Rx   d 8 00 00 00 00 00 00 00 00   Length = 0 BitCount = 0 ID = 49324086x
   4.590255 1  2f0a038x        Rx   d 8 00 00 00 00 00 00 00 00   Length = 0 BitCount = 0 ID = 49324088x
   4.590508 1  2f0a040x        Rx   d 6 00 00 00 00 00 00   Length = 0 BitCount = 0 ID = 49324096x
   4.591319 1  18efff21x       Rx   d 8 04 1B F9 2E 00 00 FF 21   Length = 0 BitCount = 0 ID = 418381601x
   4.605804 1  2f0a000x        Rx   d 8 00 40 04 04 08 03 BB B9   Length = 0 BitCount = 0 ID = 49324032x
   4.606092 1  2f0a002x        Rx   d 8 80 C8 00 01 00 78 10 00   Length = 0 BitCount = 0 ID = 49324034x
   4.606398 1  2f0a004x        Rx   d 8 00 02 A8 00 00 00 00 01   Length = 0 BitCount = 0 ID = 49324036x
   4.606699 1  2f0a006x        Rx   d 8 00 00 00 00 04 00 00 00   Length = 0 BitCount = 0 ID = 49324038x
   4.606916 1  2f0a008x        Rx   d 4 00 00 02 00   Length = 0 BitCount = 0 ID = 49324040x
   4.607204 1  2f0a012x        Rx   d 8 00 00 00 00 00 00 00 00   Length = 0 BitCount = 0 ID = 49324050x
   4.607498 1  2f0a014x        Rx   d 8 1E 14 14 00 00 00 00 00   Length = 0 BitCount = 0 ID = 49324052x
   4.607765 1  2f0a016x        Rx   d 7 65 00 00 00 00 00 00   Length = 0 BitCount = 0 ID = 49324054x
   4.607980 1  2f0a018x        Rx   d 4 00 00 00 00   Length = 0 BitCount = 0 ID = 49324056x
   4.608266 1  2f0a020x        Rx   d 8 00 00 50 00 03 C0 C8 00   Length = 0 BitCount = 0 ID = 49324064x
   4.608545 1  2f0a022x        Rx   d 8 02 80 00 3E 80 0C 00 00   Length = 0 BitCount = 0 ID = 49324066x
   4.608839 1  2f0a024x        Rx   d 8 00 00 50 00 03 C0 C8 00   Length = 0 BitCount = 0 ID = 49324068x
   4.609118 1  2f0a026x        Rx   d 8 02 80 00 3E 80 00 00 00   Length = 0 BitCount = 0 ID = 49324070x
   4.609411 1  2f0a028x        Rx   d 8 00 00 50 00 03 C0 C8 00   Length = 0 BitCount = 0 ID = 49324072x
   4.609702 1  2f0a030x        Rx   d 8 02 80 00 3E 80 00 00 00   Length = 0 BitCount = 0 ID = 49324080x
   4.609975 1  2f0a032x        Rx   d 8 05 00 00 3C 00 28 C8 00   Length = 0 BitCount = 0 ID = 49324082x
   4.610226 1  2f0a034x        Rx   d 6 00 03 E8 14 05 20   Length = 0 BitCount = 0 ID = 49324084x
   4.610515 1  2f0a036x        Rx   d 8 00 00 00 00 00 00 00 00   Length = 0 BitCount = 0 ID = 49324086x
   4.610814 1  2f0a038x        Rx   d 8 00 00 00 00 00 00 00 00   Length = 0 BitCount = 0 ID = 49324088x
   4.611068 1  2f0a040x        Rx   d 6 00 00 00 00 00 00   Length = 0 BitCount = 0 ID = 49324096x
   4.611323 1  2f0a044x        Rx   d 7 12 02 A0 00 48 08 A0   Length = 0 BitCount = 0 ID = 49324100x
   4.625811 1  2f0a004x        Rx   d 8 00 02 A8 00 00 00 00 01   Length = 0 BitCount = 0 ID = 49324036x
   4.626107 1  2f0a006x        Rx   d 8 00 00 00 00 04 00 00 00   Length = 0 BitCount = 0 ID = 49324038x
   4.626333 1  2f0a008x        Rx   d 4 00 00 02 00   Length = 0 BitCount = 0 ID = 49324040x
   4.626636 1  2f0a012x        Rx   d 8 00 00 00 00 00 00 00 00   Length = 0 BitCount = 0 ID = 49324050x
   4.626932 1  2f0a014x        Rx   d 8 1E 14 14 00 00 00 00 00   Length = 0 BitCount = 0 ID = 49324052x
   4.627196 1  2f0a016x        Rx   d 7 65 00 00 00 00 00 00   Length = 0 BitCount = 0 ID = 49324054x
   4.627415 1  2f0a018x        Rx   d 4 00 00 00 00   Length = 0 BitCount = 0 ID = 49324056x
   4.627694 1  2f0a020x        Rx   d 8 00 00 50 00 03 C0 C8 00   Length = 0 BitCount = 0 ID = 49324064x
   4.627986 1  2f0a022x        Rx   d 8 02 80 00 3E 80 0C 00 00   Length = 0 BitCount = 0 ID = 49324066x
   4.628272 1  2f0a024x        Rx   d 8 00 00 50 00 03 C0 C8 00   Length = 0 BitCount = 0 ID = 49324068x
   4.628554 1  2f0a026x        Rx   d 8 02 80 00 3E 80 00 00 00   Length = 0 BitCount = 0 ID = 49324070x
   4.628839 1  2f0a028x        Rx   d 8 00 00 50 00 03 C0 C8 00   Length = 0 BitCount = 0 ID = 49324072x
   4.629128 1  2f0a030x        Rx   d 8 02 80 00 3E 80 00 00 00   Length = 0 BitCount = 0 ID = 49324080x
   4.629415 1  2f0a032x        Rx   d 8 05 00 00 3C 00 28 C8 00   Length = 0 BitCount = 0 ID = 49324082x
   4.629662 1  2f0a034x        Rx   d 6 00 03 E8 14 05 20   Length = 0 BitCount = 0 ID = 49324084x
   4.629946 1  2f0a036x        Rx   d 8 00 00 00 00 00 00 00 00   Length = 0 BitCount = 0 ID = 49324086x
   4.630246 1  2f0a038x        Rx   d 8 00 00 00 00 00 00 00 00   Length = 0 BitCount = 0 ID = 49324088x
   4.630499 1  2f0a040x        Rx   d 6 00 00 00 00 00 00   Length = 0 BitCount = 0 ID = 49324096x
   4.645804 1  2f0a004x        Rx   d 8 00 02 A8 00 00 00 00 01   Length = 0 BitCount = 0 ID = 49324036x
   4.646103 1  2f0a006x        Rx   d 8 00 00 00 00 04 00 00 00   Length = 0 BitCount = 0 ID = 49324038x
   4.646334 1  2f0a008x        Rx   d 4 00 00 02 00   Length = 0 BitCount = 0 ID = 49324040x
   4.646635 1  2f0a012x        Rx   d 8 00 00 00 00 00 00 00 00   Length = 0 BitCount = 0 ID = 49324050x
   4.646920 1  2f0a014x        Rx   d 8 1E 14 14 00 00 00 00 00   Length = 0 BitCount = 0 ID = 49324052x
   4.647196 1  2f0a016x        Rx   d 7 65 00 00 00 00 00 00   Length = 0 BitCount = 0 ID = 49324054x
   4.647402 1  2f0a018x        Rx   d 4 00 00 00 00   Length = 0 BitCount = 0 ID = 49324056x
   4.647688 1  2f0a020x        Rx   d 8 00 00 50 00 03 C0 C8 00   Length = 0 BitCount = 0 ID = 49324064x
   4.647975 1  2f0a022x        Rx   d 8 02 80 00 3E 80 0C 00 00   Length = 0 BitCount = 0 ID = 49324066x
   4.648263 1  2f0a024x        Rx   d 8 00 00 50 00 03 C0 C8 00   Length = 0 BitCount = 0 ID = 49324068x
   4.648549 1  2f0a026x        Rx   d 8 02 80 00 3E 80 00 00 00   Length = 0 BitCount = 0 ID = 49324070x
   4.648839 1  2f0a028x        Rx   d 8 00 00 50 00 03 C0 C8 00   Length = 0 BitCount = 0 ID = 49324072x
   4.649124 1  2f0a030x        Rx   d 8 02 80 00 3E 80 00 00 00   Length = 0 BitCount = 0 ID = 49324080x
   4.649404 1  2f0a032x        Rx   d 8 05 00 00 3C 00 28 C8 00   Length = 0 BitCount = 0 ID = 49324082x
   4.649654 1  2f0a034x        Rx   d 6 00 03 E8 14 05 20   Length = 0 BitCount = 0 ID = 49324084x
   4.649944 1  2f0a036x        Rx   d 8 00 00 00 00 00 00 00 00   Length = 0 BitCount = 0 ID = 49324086x
   4.650241 1  2f0a038x        Rx   d 8 00 00 00 00 00 00 00 00   Length = 0 BitCount = 0 ID = 49324088x
   4.650490 1  2f0a040x        Rx   d 6 00 00 00 00 00 00   Length = 0 BitCount = 0 ID = 49324096x
   4.665804 1  2f0a004x        Rx   d 8 00 02 A8 00 00 00 00 01   Length = 0 BitCount = 0 ID = 49324036x
   4.666102 1  2f0a006x        Rx   d 8 00 00 00 00 04 00 00 00   Length = 0 BitCount = 0 ID = 49324038x
   4.666326 1  2f0a008x        Rx   d 4 00 00 02 00   Length = 0 BitCount = 0 ID = 49324040x
   4.666631 1  2f0a012x        Rx   d 8 00 00 00 00 00 00 00 00   Length = 0 BitCount = 0 ID = 49324050x
   4.666923 1  2f0a014x        Rx   d 8 1E 14 14 00 00 00 00 00   Length = 0 BitCount = 0 ID = 49324052x
   4.667192 1  2f0a016x        Rx   d 7 65 00 00 00 00 00 00   Length = 0 BitCount = 0 ID = 49324054x
   4.667408 1  2f0a018x        Rx   d 4 00 00 00 00   Length = 0 BitCount = 0 ID = 49324056x
   4.667695 1  2f0a020x        Rx   d 8 00 00 50 00 03 C0 C8 00   Length = 0 BitCount = 0 ID = 49324064x
   4.667976 1  2f0a022x        Rx   d 8 02 80 00 3E 80 0C 00 00   Length = 0 BitCount = 0 ID = 49324066x
   4.668263 1  2f0a024x        Rx   d 8 00 00 50 00 03 C0 C8 00   Length = 0 BitCount = 0 ID = 49324068x
   4.668553 1  2f0a026x        Rx   d 8 02 80 00 3E 80 00 00 00   Length = 0 BitCount = 0 ID = 49324070x
   4.668841 1  2f0a028x        Rx   d 8 00 00 50 00 03 C0 C8 00   Length = 0 BitCount = 0 ID = 49324072x
   4.669121 1  2f0a030x        Rx   d 8 02 80 00 3E 80 00 00 00   Length = 0 BitCount = 0 ID = 49324080x
   4.669409 1  2f0a032x        Rx   d 8 05 00 00 3C 00 28 C8 00   Length = 0 BitCount = 0 ID = 49324082x
   4.669656 1  2f0a034x        Rx   d 6 00 03 E8 14 05 20   Length = 0 BitCount = 0 ID = 49324084x
   4.669939 1  2f0a036x        Rx   d 8 00 00 00 00 00 00 00 00   Length = 0 BitCount = 0 ID = 49324086x
   4.670237 1  2f0a038x        Rx   d 8 00 00 00 00 00 00 00 00   Length = 0 BitCount = 0 ID = 49324088x
   4.670496 1  2f0a040x        Rx   d 6 00 00 00 00 00 00   Length = 0 BitCount = 0 ID = 49324096x
   4.685797 1  2f0a004x        Rx   d 8 00 02 A8 00 00 00 00 01   Length = 0 BitCount = 0 ID = 49324036x
   4.686100 1  2f0a006x        Rx   d 8 00 00 00 00 04 00 00 00   Length = 0 BitCount = 0 ID = 49324038x
   4.686327 1  2f0a008x        Rx   d 4 00 00 02 00   Length = 0 BitCount = 0 ID = 49324040x
   4.686627 1  2f0a012x        Rx   d 8 00 00 00 00 00 00 00 00   Length = 0 BitCount = 0 ID = 49324050x
   4.686914 1  2f0a014x        Rx   d 8 1E 14 14 00 00 00 00 00   Length = 0 BitCount = 0 ID = 49324052x
   4.687183 1  2f0a016x        Rx   d 7 65 00 00 00 00 00 00   Length = 0 BitCount = 0 ID = 49324054x
   4.687396 1  2f0a018x        Rx   d 4 00 00 00 00   Length = 0 BitCount = 0 ID = 49324056x
   4.687690 1  2f0a020x        Rx   d 8 00 00 50 00 03 C0 C8 00   Length = 0 BitCount = 0 ID = 49324064x
   4.687975 1  2f0a022x        Rx   d 8 02 80 00 3E 80 0C 00 00   Length = 0 BitCount = 0 ID = 49324066x
   4.688257 1  2f0a024x        Rx   d 8 00 00 50 00 03 C0 C8 00   Length = 0 BitCount = 0 ID = 49324068x
   4.688544 1  2f0a026x        Rx   d 8 02 80 00 3E 80 00 00 00   Length = 0 BitCount = 0 ID = 49324070x
   4.688829 1  2f0a028x        Rx   d 8 00 00 50 00 03 C0 C8 00   Length = 0 BitCount = 0 ID = 49324072x
   4.689119 1  2f0a030x        Rx   d 8 02 80 00 3E 80 00 00 00   Length = 0 BitCount = 0 ID = 49324080x
   4.689401 1  2f0a032x        Rx   d 8 05 00 00 3C 00 28 C8 00   Length = 0 BitCount = 0 ID = 49324082x
   4.689648 1  2f0a034x        Rx   d 6 00 03 E8 14 05 20   Length = 0 BitCount = 0 ID = 49324084x
   4.689939 1  2f0a036x        Rx   d 8 00 00 00 00 00 00 00 00   Length = 0 BitCount = 0 ID = 49324086x
   4.690230 1  2f0a038x        Rx   d 8 00 00 00 00 00 00 00 00   Length = 0 BitCount = 0 ID = 49324088x
   4.690491 1  2f0a040x        Rx   d 6 00 00 00 00 00 00   Length = 0 BitCount = 0 ID = 49324096x
   4.691134 1  18efff21x       Rx   d 8 04 1B F9 2F 00 00 FF 21   Length = 0 BitCount = 0 ID = 418381601x
   4.705792 1  2f0a000x        Rx   d 8 00 40 04 04 08 03 BB B9   Length = 0 BitCount = 0 ID = 49324032x
   4.706089 1  2f0a002x        Rx   d 8 80 C8 00 01 00 78 10 40   Length = 0 BitCount = 0 ID = 49324034x
   4.706390 1  2f0a004x        Rx   d 8 00 02 A8 00 00 00 00 01   Length = 0 BitCount = 0 ID = 49324036x
   4.706690 1  2f0a006x        Rx   d 8 00 00 00 00 04 00 00 00   Length = 0 BitCount = 0 ID = 49324038x
   4.706901 1  2f0a008x        Rx   d 4 00 00 02 00   Length = 0 BitCount = 0 ID = 49324040x
