date Sat Sep 12 07:56:43.853 pm 2026
base hex  timestamps absolute
internal events logged
// version 8.5.0
Begin Triggerblock Sat Sep 12 07:56:43.853 pm 2026
   0.000000 Start of measurement
   0.000000 1  18efff21x       Rx   d 8 04 1B F9 00 00 00 FF 21   Length = 0 BitCount = 0 ID = 418381601x
   0.099877 1  18efff21x       Rx   d 8 04 1B F9 01 00 00 FF 21   Length = 0 BitCount = 0 ID = 418381601x
   0.199760 1  18efff21x       Rx   d 8 04 1B F9 02 00 00 FF 21   Length = 0 BitCount = 0 ID = 418381601x
   0.299629 1  18efff21x       Rx   d 8 04 1B F9 03 00 00 FF 21   Length = 0 BitCount = 0 ID = 418381601x
   0.399511 1  18efff21x       Rx   d 8 04 1B F9 04 00 00 FF 21   Length = 0 BitCount = 0 ID = 418381601x
   0.499377 1  18efff21x       Rx   d 8 04 1B F9 05 00 00 FF 21   Length = 0 BitCount = 0 ID = 418381601x
   0.599249 1  18efff21x       Rx   d 8 04 1B F9 06 00 00 FF 21   Length = 0 BitCount = 0 ID = 418381601x
   0.699109 1  18efff21x       Rx   d 8 04 1B F9 07 00 00 FF 21   Length = 0 BitCount = 0 ID = 418381601x
   0.798988 1  18efff21x       Rx   d 8 04 1B F9 08 00 00 FF 21   Length = 0 BitCount = 0 ID = 418381601x
   0.898865 1  18efff21x       Rx   d 8 04 1B F9 09 00 00 FF 21   Length = 0 BitCount = 0 ID = 418381601x
   0.998753 1  18efff21x       Rx   d 8 04 1B F9 0A 00 00 FF 21   Length = 0 BitCount = 0 ID = 418381601x
   1.098639 1  18efff21x       Rx   d 8 04 1B F9 0B 00 00 FF 21   Length = 0 BitCount = 0 ID = 418381601x
   1.198503 1  18efff21x       Rx   d 8 04 1B F9 0C 00 00 FF 21   Length = 0 BitCount = 0 ID = 418381601x
   1.298388 1  18efff21x       Rx   d 8 04 1B F9 0D 00 00 FF 21   Length = 0 BitCount = 0 ID = 418381601x
   1.398245 1  18efff21x       Rx   d 8 04 1B F9 0E 00 00 FF 21   Length = 0 BitCount = 0 ID = 418381601x
   1.498138 1  18efff21x       Rx   d 8 04 1B F9 0F 00 00 FF 21   Length = 0 BitCount = 0 ID = 418381601x
   1.598020 1  18efff21x       Rx   d 8 04 1B F9 10 00 00 FF 21   Length = 0 BitCount = 0 ID = 418381601x
   1.697911 1  18efff21x       Rx   d 8 04 1B F9 11 00 00 FF 21   Length = 0 BitCount = 0 ID = 418381601x
   1.797789 1  18efff21x       Rx   d 8 04 1B F9 12 00 00 FF 21   Length = 0 BitCount = 0 ID = 418381601x
   1.897674 1  18efff21x       Rx   d 8 04 1B F9 13 00 00 FF 21   Length = 0 BitCount = 0 ID = 418381601x
   1.997551 1  18efff21x       Rx   d 8 04 1B F9 14 00 00 FF 21   Length = 0 BitCount = 0 ID = 418381601x
   2.097423 1  18efff21x       Rx   d 8 04 1B F9 15 00 00 FF 21   Length = 0 BitCount = 0 ID = 418381601x
   2.197305 1  18efff21x       Rx   d 8 04 1B F9 16 00 00 FF 21   Length = 0 BitCount = 0 ID = 418381601x
   2.297178 1  18efff21x       Rx   d 8 04 1B F9 17 00 00 FF 21   Length = 0 BitCount = 0 ID = 418381601x
   2.397040 1  18efff21x       Rx   d 8 04 1B F9 18 00 00 FF 21   Length = 0 BitCount = 0 ID = 418381601x
   2.496905 1  18efff21x       Rx   d 8 04 1B F9 19 00 00 FF 21   Length = 0 BitCount = 0 ID = 418381601x
   2.596765 1  18efff21x       Rx   d 8 04 1B F9 1A 00 00 FF 21   Length = 0 BitCount = 0 ID = 418381601x
   2.696637 1  18efff21x       Rx   d 8 04 1B F9 1B 00 00 FF 21   Length = 0 BitCount = 0 ID = 418381601x
   2.796518 1  18efff21x       Rx   d 8 04 1B F9 1C 00 00 FF 21   Length = 0 BitCount = 0 ID = 418381601x
   2.896389 1  18efff21x       Rx   d 8 04 1B F9 1D 00 00 FF 21   Length = 0 BitCount = 0 ID = 418381601x
   2.996257 1  18efff21x       Rx   d 8 04 1B F9 1E 00 00 FF 21   Length = 0 BitCount = 0 ID = 418381601x
   3.096114 1  18efff21x       Rx   d 8 04 1B F9 1F 00 00 FF 21   Length = 0 BitCount = 0 ID = 418381601x
   3.195989 1  18efff21x       Rx   d 8 04 1B F9 20 00 00 FF 21   Length = 0 BitCount = 0 ID = 418381601x
   3.295852 1  18efff21x       Rx   d 8 04 1B F9 21 00 00 FF 21   Length = 0 BitCount = 0 ID = 418381601x
   3.395730 1  18efff21x       Rx   d 8 04 1B F9 22 00 00 FF 21   Length = 0 BitCount = 0 ID = 418381601x
   3.495603 1  18efff21x       Rx   d 8 04 1B F9 23 00 00 FF 21   Length = 0 BitCount = 0 ID = 418381601x
   3.595480 1  18efff21x       Rx   d 8 04 1B F9 24 00 00 FF 21   Length = 0 BitCount = 0 ID = 418381601x
   3.695357 1  18efff21x       Rx   d 8 04 1B F9 25 00 00 FF 21   Length = 0 BitCount = 0 ID = 418381601x
   3.795235 1  18efff21x       Rx   d 8 04 1B F9 26 00 00 FF 21   Length = 0 BitCount = 0 ID = 418381601x
   3.895110 1  18efff21x       Rx   d 8 04 1B F9 27 00 00 FF 21   Length = 0 BitCount = 0 ID = 418381601x
   3.995006 1  18efff21x       Rx   d 8 04 1B F9 28 00 00 FF 21   Length = 0 BitCount = 0 ID = 418381601x
   4.094876 1  18efff21x       Rx   d 8 04 1B F9 29 00 00 FF 21   Length = 0 BitCount = 0 ID = 418381601x
   4.194763 1  18efff21x       Rx   d 8 04 1B F9 2A 00 00 FF 21   Length = 0 BitCount = 0 ID = 418381601x
   4.294636 1  18efff21x       Rx   d 8 04 1B F9 2B 00 00 FF 21   Length = 0 BitCount = 0 ID = 418381601x
   4.394527 1  18efff21x       Rx   d 8 04 1B F9 2C 00 00 FF 21   Length = 0 BitCount = 0 ID = 418381601x
   4.494408 1  18efff21x       Rx   d 8 04 1B F9 2D 00 00 FF 21   Length = 0 BitCount = 0 ID = 418381601x
   4.594293 1  18efff21x       Rx   d 8 04 1B F9 2E 00 00 FF 21   Length = 0 BitCount = 0 ID = 418381601x
   4.694181 1  18efff21x       Rx   d 8 04 1B F9 2F 00 00 FF 21   Length = 0 BitCount = 0 ID = 418381601x
   4.794075 1  18efff21x       Rx   d 8 04 1B F9 30 00 00 FF 21   Length = 0 BitCount = 0 ID = 418381601x
   4.893944 1  18efff21x       Rx   d 8 04 1B F9 31 00 00 FF 21   Length = 0 BitCount = 0 ID = 418381601x
   4.993803 1  18efff21x       Rx   d 8 04 1B F9 32 00 00 FF 21   Length = 0 BitCount = 0 ID = 418381601x
   5.093679 1  18efff21x       Rx   d 8 04 1B F9 33 00 00 FF 21   Length = 0 BitCount = 0 ID = 418381601x
   5.193553 1  18efff21x       Rx   d 8 04 1B F9 34 00 00 FF 21   Length = 0 BitCount = 0 ID = 418381601x
   5.293416 1  18efff21x       Rx   d 8 04 1B F9 35 00 00 FF 21   Length = 0 BitCount = 0 ID = 418381601x
   5.393276 1  18efff21x       Rx   d 8 04 1B F9 36 00 00 FF 21   Length = 0 BitCount = 0 ID = 418381601x
   5.493148 1  18efff21x       Rx   d 8 04 1B F9 37 00 00 FF 21   Length = 0 BitCount = 0 ID = 418381601x
   5.593015 1  18efff21x       Rx   d 8 04 1B F9 38 00 00 FF 21   Length = 0 BitCount = 0 ID = 418381601x
   5.692871 1  18efff21x       Rx   d 8 04 1B F9 39 00 00 FF 21   Length = 0 BitCount = 0 ID = 418381601x
   5.792730 1  18efff21x       Rx   d 8 04 1B F9 3A 00 00 FF 21   Length = 0 BitCount = 0 ID = 418381601x
   5.892597 1  18efff21x       Rx   d 8 04 1B F9 3B 00 00 FF 21   Length = 0 BitCount = 0 ID = 418381601x
   5.992451 1  18efff21x       Rx   d 8 04 1B F9 3C 00 00 FF 21   Length = 0 BitCount = 0 ID = 418381601x
   6.092317 1  18efff21x       Rx   d 8 04 1B F9 3D 00 00 FF 21   Length = 0 BitCount = 0 ID = 418381601x
   6.192170 1  18efff21x       Rx   d 8 04 1B F9 3E 00 00 FF 21   Length = 0 BitCount = 0 ID = 418381601x
   6.292035 1  18efff21x       Rx   d 8 04 1B F9 3F 00 00 FF 21   Length = 0 BitCount = 0 ID = 418381601x
   6.391903 1  18efff21x       Rx   d 8 04 1B F9 40 00 00 FF 21   Length = 0 BitCount = 0 ID = 418381601x
   6.491761 1  18efff21x       Rx   d 8 04 1B F9 41 00 00 FF 21   Length = 0 BitCount = 0 ID = 418381601x
   6.591610 1  18efff21x       Rx   d 8 04 1B F9 42 00 00 FF 21   Length = 0 BitCount = 0 ID = 418381601x
   6.691473 1  18efff21x       Rx   d 8 04 1B F9 43 00 00 FF 21   Length = 0 BitCount = 0 ID = 418381601x
   6.791309 1  18efff21x       Rx   d 8 04 1B F9 44 00 00 FF 21   Length = 0 BitCount = 0 ID = 418381601x
   6.891162 1  18efff21x       Rx   d 8 04 1B F9 45 00 00 FF 21   Length = 0 BitCount = 0 ID = 418381601x
   6.991003 1  18efff21x       Rx   d 8 04 1B F9 46 00 00 FF 21   Length = 0 BitCount = 0 ID = 418381601x
   7.090864 1  18efff21x       Rx   d 8 04 1B F9 47 00 00 FF 21   Length = 0 BitCount = 0 ID = 418381601x
   7.190733 1  18efff21x       Rx   d 8 04 1B F9 48 00 00 FF 21   Length = 0 BitCount = 0 ID = 418381601x
   7.290587 1  18efff21x       Rx   d 8 04 1B F9 49 00 00 FF 21   Length = 0 BitCount = 0 ID = 418381601x
   7.390453 1  18efff21x       Rx   d 8 04 1B F9 4A 00 00 FF 21   Length = 0 BitCount = 0 ID = 418381601x
   7.490290 1  18efff21x       Rx   d 8 04 1B F9 4B 00 00 FF 21   Length = 0 BitCount = 0 ID = 418381601x
   7.590143 1  18efff21x       Rx   d 8 04 1B F9 4C 00 00 FF 21   Length = 0 BitCount = 0 ID = 418381601x
   7.690007 1  18efff21x       Rx   d 8 04 1B F9 4D 00 00 FF 21   Length = 0 BitCount = 0 ID = 418381601x
   7.789844 1  18efff21x       Rx   d 8 04 1B F9 4E 00 00 FF 21   Length = 0 BitCount = 0 ID = 418381601x
   7.889697 1  18efff21x       Rx   d 8 04 1B F9 4F 00 00 FF 21   Length = 0 BitCount = 0 ID = 418381601x
   7.989563 1  18efff21x       Rx   d 8 04 1B F9 50 00 00 FF 21   Length = 0 BitCount = 0 ID = 418381601x
   8.089425 1  18efff21x       Rx   d 8 04 1B F9 51 00 00 FF 21   Length = 0 BitCount = 0 ID = 418381601x
   8.189281 1  18efff21x       Rx   d 8 04 1B F9 52 00 00 FF 21   Length = 0 BitCount = 0 ID = 418381601x
   8.289151 1  18efff21x       Rx   d 8 04 1B F9 53 00 00 FF 21   Length = 0 BitCount = 0 ID = 418381601x
   8.389017 1  18efff21x       Rx   d 8 04 1B F9 54 00 00 FF 21   Length = 0 BitCount = 0 ID = 418381601x
   8.488884 1  18efff21x       Rx   d 8 04 1B F9 55 00 00 FF 21   Length = 0 BitCount = 0 ID = 418381601x
   8.588751 1  18efff21x       Rx   d 8 04 1B F9 56 00 00 FF 21   Length = 0 BitCount = 0 ID = 418381601x
   8.688608 1  18efff21x       Rx   d 8 04 1B F9 57 00 00 FF 21   Length = 0 BitCount = 0 ID = 418381601x
   8.788485 1  18efff21x       Rx   d 8 04 1B F9 58 00 00 FF 21   Length = 0 BitCount = 0 ID = 418381601x
   8.888352 1  18efff21x       Rx   d 8 04 1B F9 59 00 00 FF 21   Length = 0 BitCount = 0 ID = 418381601x
   8.988220 1  18efff21x       Rx   d 8 04 1B F9 5A 00 00 FF 21   Length = 0 BitCount = 0 ID = 418381601x
   9.088087 1  18efff21x       Rx   d 8 04 1B F9 5B 00 00 FF 21   Length = 0 BitCount = 0 ID = 418381601x
   9.187965 1  18efff21x       Rx   d 8 04 1B F9 5C 00 00 FF 21   Length = 0 BitCount = 0 ID = 418381601x
   9.287839 1  18efff21x       Rx   d 8 04 1B F9 5D 00 00 FF 21   Length = 0 BitCount = 0 ID = 418381601x
   9.387720 1  18efff21x       Rx   d 8 04 1B F9 5E 00 00 FF 21   Length = 0 BitCount = 0 ID = 418381601x
   9.487589 1  18efff21x       Rx   d 8 04 1B F9 5F 00 00 FF 21   Length = 0 BitCount = 0 ID = 418381601x
   9.587459 1  18efff21x       Rx   d 8 04 1B F9 60 00 00 FF 21   Length = 0 BitCount = 0 ID = 418381601x
   9.687318 1  18efff21x       Rx   d 8 04 1B F9 61 00 00 FF 21   Length = 0 BitCount = 0 ID = 418381601x
   9.787183 1  18efff21x       Rx   d 8 04 1B F9 62 00 00 FF 21   Length = 0 BitCount = 0 ID = 418381601x
   9.887045 1  18efff21x       Rx   d 8 04 1B F9 63 00 00 FF 21   Length = 0 BitCount = 0 ID = 418381601x
   9.986901 1  18efff21x       Rx   d 8 04 1B F9 64 00 00 FF 21   Length = 0 BitCount = 0 ID = 418381601x
  10.086754 1  18efff21x       Rx   d 8 04 1B F9 65 00 00 FF 21   Length = 0 BitCount = 0 ID = 418381601x
  10.186619 1  18efff21x       Rx   d 8 04 1B F9 66 00 00 FF 21   Length = 0 BitCount = 0 ID = 418381601x
  10.286476 1  18efff21x       Rx   d 8 04 1B F9 67 00 00 FF 21   Length = 0 BitCount = 0 ID = 418381601x
  10.386338 1  18efff21x       Rx   d 8 04 1B F9 68 00 00 FF 21   Length = 0 BitCount = 0 ID = 418381601x
  10.486188 1  18efff21x       Rx   d 8 04 1B F9 69 00 00 FF 21   Length = 0 BitCount = 0 ID = 418381601x
  10.586041 1  18efff21x       Rx   d 8 04 1B F9 6A 00 00 FF 21   Length = 0 BitCount = 0 ID = 418381601x
  10.685915 1  18efff21x       Rx   d 8 04 1B F9 6B 00 00 FF 21   Length = 0 BitCount = 0 ID = 418381601x
  10.785778 1  18efff21x       Rx   d 8 04 1B F9 6C 00 00 FF 21   Length = 0 BitCount = 0 ID = 418381601x
  10.885640 1  18efff21x       Rx   d 8 04 1B F9 6D 00 00 FF 21   Length = 0 BitCount = 0 ID = 418381601x
  10.985505 1  18efff21x       Rx   d 8 04 1B F9 6E 00 00 FF 21   Length = 0 BitCount = 0 ID = 418381601x
  11.085366 1  18efff21x       Rx   d 8 04 1B F9 6F 00 00 FF 21   Length = 0 BitCount = 0 ID = 418381601x
  11.185225 1  18efff21x       Rx   d 8 04 1B F9 70 00 00 FF 21   Length = 0 BitCount = 0 ID = 418381601x
  11.285090 1  18efff21x       Rx   d 8 04 1B F9 71 00 00 FF 21   Length = 0 BitCount = 0 ID = 418381601x
  11.384946 1  18efff21x       Rx   d 8 04 1B F9 72 00 00 FF 21   Length = 0 BitCount = 0 ID = 418381601x
  11.484822 1  18efff21x       Rx   d 8 04 1B F9 73 00 00 FF 21   Length = 0 BitCount = 0 ID = 418381601x
  11.584697 1  18efff21x       Rx   d 8 04 1B F9 74 00 00 FF 21   Length = 0 BitCount = 0 ID = 418381601x
  11.656715 1  2f0a036x        Rx   d 8 00 00 00 00 00 00 00 00   Length = 0 BitCount = 0 ID = 49324086x
  11.657021 1  2f0a038x        Rx   d 8 00 00 00 00 00 00 00 00   Length = 0 BitCount = 0 ID = 49324088x
  11.657291 1  2f0a040x        Rx   d 6 00 00 00 00 00 00   Length = 0 BitCount = 0 ID = 49324096x
  11.666709 1  2f0a000x        Rx   d 8 00 40 04 04 08 03 BB B9   Length = 0 BitCount = 0 ID = 49324032x
  11.667005 1  2f0a002x        Rx   d 8 80 C8 00 01 00 78 10 40   Length = 0 BitCount = 0 ID = 49324034x
  11.667298 1  2f0a004x        Rx   d 8 00 02 A8 00 00 00 00 01   Length = 0 BitCount = 0 ID = 49324036x
  11.667602 1  2f0a006x        Rx   d 8 00 00 00 00 04 00 00 00   Length = 0 BitCount = 0 ID = 49324038x
  11.667815 1  2f0a008x        Rx   d 4 00 00 02 00   Length = 0 BitCount = 0 ID = 49324040x
  11.668114 1  2f0a012x        Rx   d 8 00 00 00 00 00 00 00 00   Length = 0 BitCount = 0 ID = 49324050x
  11.668395 1  2f0a014x        Rx   d 8 1E 14 14 00 00 00 00 00   Length = 0 BitCount = 0 ID = 49324052x
  11.668672 1  2f0a016x        Rx   d 7 65 00 00 00 00 00 00   Length = 0 BitCount = 0 ID = 49324054x
  11.668882 1  2f0a018x        Rx   d 4 00 00 00 00   Length = 0 BitCount = 0 ID = 49324056x
  11.669169 1  2f0a020x        Rx   d 8 00 00 50 00 03 C0 C8 00   Length = 0 BitCount = 0 ID = 49324064x
  11.669452 1  2f0a022x        Rx   d 8 02 80 00 3E 80 0C 00 00   Length = 0 BitCount = 0 ID = 49324066x
  11.669739 1  2f0a024x        Rx   d 8 00 00 50 00 03 C0 C8 00   Length = 0 BitCount = 0 ID = 49324068x
  11.670023 1  2f0a026x        Rx   d 8 02 80 00 3E 80 00 00 00   Length = 0 BitCount = 0 ID = 49324070x
  11.670316 1  2f0a028x        Rx   d 8 00 00 50 00 03 C0 C8 00   Length = 0 BitCount = 0 ID = 49324072x
  11.670600 1  2f0a030x        Rx   d 8 02 80 00 3E 80 00 00 00   Length = 0 BitCount = 0 ID = 49324080x
  11.670884 1  2f0a032x        Rx   d 8 05 00 00 3C 00 28 C8 00   Length = 0 BitCount = 0 ID = 49324082x
  11.671134 1  2f0a034x        Rx   d 6 00 03 E8 14 05 20   Length = 0 BitCount = 0 ID = 49324084x
  11.676717 1  2f0a036x        Rx   d 8 00 00 00 00 00 00 00 00   Length = 0 BitCount = 0 ID = 49324086x
  11.677023 1  2f0a038x        Rx   d 8 00 00 00 00 00 00 00 00   Length = 0 BitCount = 0 ID = 49324088x
  11.677284 1  2f0a040x        Rx   d 6 00 00 00 00 00 00   Length = 0 BitCount = 0 ID = 49324096x
  11.677555 1  2f0a044x        Rx   d 7 12 02 A0 00 48 08 A0   Length = 0 BitCount = 0 ID = 49324100x
  11.684569 1  18efff21x       Rx   d 8 04 1B F9 75 00 00 FF 21   Length = 0 BitCount = 0 ID = 418381601x
  11.686724 1  2f0a004x        Rx   d 8 00 02 A8 00 00 00 00 01   Length = 0 BitCount = 0 ID = 49324036x
  11.687023 1  2f0a006x        Rx   d 8 00 00 00 00 04 00 00 00   Length = 0 BitCount = 0 ID = 49324038x
  11.687252 1  2f0a008x        Rx   d 4 00 00 02 00   Length = 0 BitCount = 0 ID = 49324040x
  11.687555 1  2f0a012x        Rx   d 8 00 00 00 00 00 00 00 00   Length = 0 BitCount = 0 ID = 49324050x
  11.687841 1  2f0a014x        Rx   d 8 1E 14 14 00 00 00 00 00   Length = 0 BitCount = 0 ID = 49324052x
  11.688108 1  2f0a016x        Rx   d 7 65 00 00 00 00 00 00   Length = 0 BitCount = 0 ID = 49324054x
  11.688330 1  2f0a018x        Rx   d 4 00 00 00 00   Length = 0 BitCount = 0 ID = 49324056x
  11.688608 1  2f0a020x        Rx   d 8 00 00 50 00 03 C0 C8 00   Length = 0 BitCount = 0 ID = 49324064x
  11.688896 1  2f0a022x        Rx   d 8 02 80 00 3E 80 0C 00 00   Length = 0 BitCount = 0 ID = 49324066x
  11.689182 1  2f0a024x        Rx   d 8 00 00 50 00 03 C0 C8 00   Length = 0 BitCount = 0 ID = 49324068x
  11.689471 1  2f0a026x        Rx   d 8 02 80 00 3E 80 00 00 00   Length = 0 BitCount = 0 ID = 49324070x
  11.689761 1  2f0a028x        Rx   d 8 00 00 50 00 03 C0 C8 00   Length = 0 BitCount = 0 ID = 49324072x
  11.690045 1  2f0a030x        Rx   d 8 02 80 00 3E 80 00 00 00   Length = 0 BitCount = 0 ID = 49324080x
  11.690324 1  2f0a032x        Rx   d 8 05 00 00 3C 00 28 C8 00   Length = 0 BitCount = 0 ID = 49324082x
  11.690571 1  2f0a034x        Rx   d 6 00 03 E8 14 05 20   Length = 0 BitCount = 0 ID = 49324084x
  11.696716 1  2f0a036x        Rx   d 8 00 00 00 00 00 00 00 00   Length = 0 BitCount = 0 ID = 49324086x
  11.697027 1  2f0a038x        Rx   d 8 00 00 00 00 00 00 00 00   Length = 0 BitCount = 0 ID = 49324088x
  11.697293 1  2f0a040x        Rx   d 6 00 00 00 00 00 00   Length = 0 BitCount = 0 ID = 49324096x
  11.706721 1  2f0a004x        Rx   d 8 00 02 A8 00 00 00 00 01   Length = 0 BitCount = 0 ID = 49324036x
  11.707019 1  2f0a006x        Rx   d 8 00 00 00 00 04 00 00 00   Length = 0 BitCount = 0 ID = 49324038x
  11.707246 1  2f0a008x        Rx   d 4 00 00 02 00   Length = 0 BitCount = 0 ID = 49324040x
  11.707549 1  2f0a012x        Rx   d 8 00 00 00 00 00 00 00 00   Length = 0 BitCount = 0 ID = 49324050x
  11.707841 1  2f0a014x        Rx   d 8 1E 14 14 00 00 00 00 00   Length = 0 BitCount = 0 ID = 49324052x
  11.708109 1  2f0a016x        Rx   d 7 65 00 00 00 00 00 00   Length = 0 BitCount = 0 ID = 49324054x
  11.708319 1  2f0a018x        Rx   d 4 00 00 00 00   Length = 0 BitCount = 0 ID = 49324056x
  11.708608 1  2f0a020x        Rx   d 8 00 00 50 00 03 C0 C8 00   Length = 0 BitCount = 0 ID = 49324064x
  11.708893 1  2f0a022x        Rx   d 8 02 80 00 3E 80 0C 00 00   Length = 0 BitCount = 0 ID = 49324066x
  11.709179 1  2f0a024x        Rx   d 8 00 00 50 00 03 C0 C8 00   Length = 0 BitCount = 0 ID = 49324068x
  11.709462 1  2f0a026x        Rx   d 8 02 80 00 3E 80 00 00 00   Length = 0 BitCount = 0 ID = 49324070x
  11.709757 1  2f0a028x        Rx   d 8 00 00 50 00 03 C0 C8 00   Length = 0 BitCount = 0 ID = 49324072x
  11.710044 1  2f0a030x        Rx   d 8 02 80 00 3E 80 00 00 00   Length = 0 BitCount = 0 ID = 49324080x
  11.710321 1  2f0a032x        Rx   d 8 05 00 00 3C 00 28 C8 00   Length = 0 BitCount = 0 ID = 49324082x
  11.710566 1  2f0a034x        Rx   d 6 00 03 E8 14 05 20   Length = 0 BitCount = 0 ID = 49324084x
  11.716718 1  2f0a036x        Rx   d 8 00 00 00 00 00 00 00 00   Length = 0 BitCount = 0 ID = 49324086x
  11.717024 1  2f0a038x        Rx   d 8 00 00 00 00 00 00 00 00   Length = 0 BitCount = 0 ID = 49324088x
  11.717288 1  2f0a040x        Rx   d 6 00 00 00 00 00 00   Length = 0 BitCount = 0 ID = 49324096x
  11.726724 1  2f0a004x        Rx   d 8 00 02 A8 00 00 00 00 01   Length = 0 BitCount = 0 ID = 49324036x
  11.727023 1  2f0a006x        Rx   d 8 00 00 00 00 04 00 00 00   Length = 0 BitCount = 0 ID = 49324038x
  11.727244 1  2f0a008x        Rx   d 4 00 00 02 00   Length = 0 BitCount = 0 ID = 49324040x
  11.727550 1  2f0a012x        Rx   d 8 00 00 00 00 00 00 00 00   Length = 0 BitCount = 0 ID = 49324050x
  11.727831 1  2f0a014x        Rx   d 8 1E 14 14 00 00 00 00 00   Length = 0 BitCount = 0 ID = 49324052x
  11.728107 1  2f0a016x        Rx   d 7 65 00 00 00 00 00 00   Length = 0 BitCount = 0 ID = 49324054x
  11.728317 1  2f0a018x        Rx   d 4 00 00 00 00   Length = 0 BitCount = 0 ID = 49324056x
  11.728605 1  2f0a020x        Rx   d 8 00 00 50 00 03 C0 C8 00   Length = 0 BitCount = 0 ID = 49324064x
  11.728892 1  2f0a022x        Rx   d 8 02 80 00 3E 80 0C 00 00   Length = 0 BitCount = 0 ID = 49324066x
  11.729178 1  2f0a024x        Rx   d 8 00 00 50 00 03 C0 C8 00   Length = 0 BitCount = 0 ID = 49324068x
  11.729461 1  2f0a026x        Rx   d 8 02 80 00 3E 80 00 00 00   Length = 0 BitCount = 0 ID = 49324070x
  11.729748 1  2f0a028x        Rx   d 8 00 00 50 00 03 C0 C8 00   Length = 0 BitCount = 0 ID = 49324072x
  11.730042 1  2f0a030x        Rx   d 8 02 80 00 3E 80 00 00 00   Length = 0 BitCount = 0 ID = 49324080x
  11.730319 1  2f0a032x        Rx   d 8 05 00 00 3C 00 28 C8 00   Length = 0 BitCount = 0 ID = 49324082x
  11.730567 1  2f0a034x        Rx   d 6 00 03 E8 14 05 20   Length = 0 BitCount = 0 ID = 49324084x
  11.736722 1  2f0a036x        Rx   d 8 00 00 00 00 00 00 00 00   Length = 0 BitCount = 0 ID = 49324086x
  11.737021 1  2f0a038x        Rx   d 8 00 00 00 00 00 00 00 00   Length = 0 BitCount = 0 ID = 49324088x
  11.737290 1  2f0a040x        Rx   d 6 00 00 00 00 00 00   Length = 0 BitCount = 0 ID = 49324096x
  11.746716 1  2f0a004x        Rx   d 8 00 02 A8 00 00 00 00 01   Length = 0 BitCount = 0 ID = 49324036x
  11.747017 1  2f0a006x        Rx   d 8 00 00 00 00 04 00 00 00   Length = 0 BitCount = 0 ID = 49324038x
  11.747248 1  2f0a008x        Rx   d 4 00 00 02 00   Length = 0 BitCount = 0 ID = 49324040x
  11.747547 1  2f0a012x        Rx   d 8 00 00 00 00 00 00 00 00   Length = 0 BitCount = 0 ID = 49324050x
  11.747833 1  2f0a014x        Rx   d 8 1E 14 14 00 00 00 00 00   Length = 0 BitCount = 0 ID = 49324052x
  11.748104 1  2f0a016x        Rx   d 7 65 00 00 00 00 00 00   Length = 0 BitCount = 0 ID = 49324054x
  11.748318 1  2f0a018x        Rx   d 4 00 00 00 00   Length = 0 BitCount = 0 ID = 49324056x
  11.748603 1  2f0a020x        Rx   d 8 00 00 50 00 03 C0 C8 00   Length = 0 BitCount = 0 ID = 49324064x
  11.748885 1  2f0a022x        Rx   d 8 02 80 00 3E 80 0C 00 00   Length = 0 BitCount = 0 ID = 49324066x
  11.749174 1  2f0a024x        Rx   d 8 00 00 50 00 03 C0 C8 00   Length = 0 BitCount = 0 ID = 49324068x
  11.749459 1  2f0a026x        Rx   d 8 02 80 00 3E 80 00 00 00   Length = 0 BitCount = 0 ID = 49324070x
  11.749751 1  2f0a028x        Rx   d 8 00 00 50 00 03 C0 C8 00   Length = 0 BitCount = 0 ID = 49324072x
  11.750041 1  2f0a030x        Rx   d 8 02 80 00 3E 80 00 00 00   Length = 0 BitCount = 0 ID = 49324080x
  11.750317 1  2f0a032x        Rx   d 8 05 00 00 3C 00 28 C8 00   Length = 0 BitCount = 0 ID = 49324082x
  11.750563 1  2f0a034x        Rx   d 6 00 03 E8 14 05 20   Length = 0 BitCount = 0 ID = 49324084x
  11.756722 1  2f0a036x        Rx   d 8 00 00 00 00 00 00 00 00   Length = 0 BitCount = 0 ID = 49324086x
  11.757021 1  2f0a038x        Rx   d 8 00 00 00 00 00 00 00 00   Length = 0 BitCount = 0 ID = 49324088x
  11.757284 1  2f0a040x        Rx   d 6 00 00 00 00 00 00   Length = 0 BitCount = 0 ID = 49324096x
  11.766713 1  2f0a000x        Rx   d 8 00 40 04 04 08 03 BB B9   Length = 0 BitCount = 0 ID = 49324032x
  11.767009 1  2f0a002x        Rx   d 8 80 C4 00 01 00 78 10 00   Length = 0 BitCount = 0 ID = 49324034x
  11.767303 1  2f0a004x        Rx   d 8 00 02 A8 00 00 00 00 01   Length = 0 BitCount = 0 ID = 49324036x
  11.767609 1  2f0a006x        Rx   d 8 00 00 00 00 04 00 00 00   Length = 0 BitCount = 0 ID = 49324038x
  11.767821 1  2f0a008x        Rx   d 4 00 00 02 00   Length = 0 BitCount = 0 ID = 49324040x
  11.768120 1  2f0a012x        Rx   d 8 00 00 00 00 00 00 00 00   Length = 0 BitCount = 0 ID = 49324050x
  11.768404 1  2f0a014x        Rx   d 8 1E 14 14 00 00 00 00 00   Length = 0 BitCount = 0 ID = 49324052x
  11.768681 1  2f0a016x        Rx   d 7 65 00 00 00 00 00 00   Length = 0 BitCount = 0 ID = 49324054x
  11.768892 1  2f0a018x        Rx   d 4 00 00 00 00   Length = 0 BitCount = 0 ID = 49324056x
  11.769173 1  2f0a020x        Rx   d 8 00 00 50 00 03 C0 C8 00   Length = 0 BitCount = 0 ID = 49324064x
  11.769459 1  2f0a022x        Rx   d 8 02 80 00 3E 80 0C 00 00   Length = 0 BitCount = 0 ID = 49324066x
  11.769745 1  2f0a024x        Rx   d 8 00 00 50 00 03 C0 C8 00   Length = 0 BitCount = 0 ID = 49324068x
  11.770038 1  2f0a026x        Rx   d 8 02 80 00 3E 80 00 00 00   Length = 0 BitCount = 0 ID = 49324070x
  11.770322 1  2f0a028x        Rx   d 8 00 00 50 00 03 C0 C8 00   Length = 0 BitCount = 0 ID = 49324072x
  11.770610 1  2f0a030x        Rx   d 8 02 80 00 3E 80 00 00 00   Length = 0 BitCount = 0 ID = 49324080x
  11.770888 1  2f0a032x        Rx   d 8 05 00 00 3C 00 28 C8 00   Length = 0 BitCount = 0 ID = 49324082x
  11.771138 1  2f0a034x        Rx   d 6 00 03 E8 14 05 20   Length = 0 BitCount = 0 ID = 49324084x
  11.776722 1  2f0a036x        Rx   d 8 00 00 00 00 00 00 00 00   Length = 0 BitCount = 0 ID = 49324086x
  11.777028 1  2f0a038x        Rx   d 8 00 00 00 00 00 00 00 00   Length = 0 BitCount = 0 ID = 49324088x
  11.777291 1  2f0a040x        Rx   d 6 00 00 00 00 00 00   Length = 0 BitCount = 0 ID = 49324096x
  11.777555 1  2f0a044x        Rx   d 7 12 02 A0 00 48 08 A0   Length = 0 BitCount = 0 ID = 49324100x
  11.784433 1  18efff21x       Rx   d 8 04 1B F9 76 00 00 FF 21   Length = 0 BitCount = 0 ID = 418381601x
  11.786721 1  2f0a004x        Rx   d 8 00 02 A8 00 00 00 00 01   Length = 0 BitCount = 0 ID = 49324036x
